
T2BC0 000:436 SEGGER J-Link V4.40c Log File (0001ms, 0435ms total)
T2BC0 000:436 DLL Compiled: Jan 24 2012 09:30:33 (0001ms, 0435ms total)
T2BC0 000:436 Logging started @ 2014-07-07 21:25 (0001ms, 0435ms total)
T2BC0 000:437 JLINK_SetWarnOutHandler(...) (0000ms, 0436ms total)
T2BC0 000:437 JLINK_OpenEx(...)
Firmware: J-Link ARM V8 compiled Nov 14 2012 22:34:52
Hardware: V8.00
S/N: 99999994
Feature(s): RDI,FlashDL,FlashBP,JFlash,GDBFULL  returns O.K. (0160ms, 0436ms total)
T2BC0 000:597 JLINK_SetErrorOutHandler(...) (0000ms, 0596ms total)
T2BC0 000:597 JLINK_ExecCommand("Device = STM32F103VE", ...)
                JLINK_ExecCommand("map ram 0x20000000 - 0x2000FFFF", ...)  returns 0x00 (0000ms, 0000ms total)
                JLINK_AddMirrorAreaEx(Addr = 0x00000000, Size = 0x00000000) (0000ms, 0000ms total)
              Device "STM32F103VE" selected (512 KB flash, 64 KB RAM).  returns 0x00 (0004ms, 0596ms total)
T2BC0 000:602 JLINK_ExecCommand("ProjectFile = "E:\个人资料\毕设相关\答辩资料\STM32奋斗板MP3播放例程\JLinkSettings.ini"", ...)  returns 0x00 (0000ms, 0600ms total)
T2BC0 000:607 JLINK_ExecCommand("DisableConnectionTimeout", ...)  returns 0x00 (0000ms, 0600ms total)
T2BC0 000:607 JLINK_TIF_Select(JLINKARM_TIF_JTAG)  returns 0x00 (0000ms, 0600ms total)
T2BC0 000:607 JLINK_SetSpeed(2000) (0000ms, 0600ms total)
T2BC0 000:607 JLINK_GetHardwareVersion()  returns 0x13880 (0000ms, 0600ms total)
T2BC0 000:607 JLINK_GetDLLVersion()  returns 44003 (0000ms, 0600ms total)
T2BC0 000:607 JLINK_GetFirmwareString(...) (0000ms, 0600ms total)
T2BC0 000:614 JLINK_GetDLLVersion()  returns 44003 (0000ms, 0600ms total)
T2BC0 000:614 JLINK_GetCompileDateTime() (0000ms, 0600ms total)
T2BC0 000:615 JLINK_GetFirmwareString(...) (0000ms, 0600ms total)
T2BC0 000:617 JLINK_GetHardwareVersion()  returns 0x13880 (0000ms, 0600ms total)
T2BC0 000:623 JLINK_GetIdData(...) >0x2F8 JTAG>TotalIRLen = 9, IRPrint = 0x0011 >0x30 JTAG> >0x210 JTAG> >0x80 JTAG> >0x40 JTAG> >0x40 JTAG> >0x50 JTAG> >0x40 JTAG> >0x40 JTAG> >0x40 JTAG> >0x50 JTAG> >0x40 JTAG> >0x50 JTAG> >0x40 JTAG> >0x40 JTAG> >0x40 JTAG> >0x30 JTAG> >0x40 JTAG> >0x50 JTAG> >0x40 JTAG> >0x38 JTAG> >0x80 JTAG> >0x40 JTAG> >0x40 JTAG> >0x50 JTAG> >0x40 JTAG> >0x40 JTAG> >0x40 JTAG> >0x50 JTAG> >0x40 JTAG> >0x40 JTAG> >0x30 JTAG> >0x40 JTAG> >0x40 JTAG> >0x40 JTAG> >0x40 JTAG>
 >0x40 JTAG> >0x50 JTAG> >0x40 JTAG> >0x80 JTAG> >0x40 JTAG> >0x30 JTAG> >0x40 JTAG> >0x40 JTAG> >0x40 JTAG> >0x40 JTAG> >0x40 JTAG> >0x50 JTAG> >0x40 JTAG> >0x80 JTAG> >0x40 JTAG> >0x30 JTAG> >0x40 JTAG> >0x50 JTAG> >0x40 JTAG> >0x40 JTAG> >0x40 JTAG> >0x30 JTAG> >0x40 JTAG> >0x50 JTAG> >0x40 JTAG>Found Cortex-M3 r1p1, Little endian. >0x50 JTAG> >0x50 JTAG> >0x40 JTAG> >0x40 JTAG> >0x30 JTAG> >0x30 JTAG> >0x50 JTAG> >0x40 JTAG> >0x80 JTAG> >0x40 JTAG> >0x30 JTAG> >0x40 JTAG> >0x50 JTAG> >0x40 JTAG>
 >0x40 JTAG> >0x40 JTAG> >0x30 JTAG> >0x30 JTAG> >0x50 JTAG> >0x40 JTAG> >0x80 JTAG> >0x40 JTAG> >0x30 JTAG> >0x40 JTAG> >0x50 JTAG> >0x40 JTAG>TPIU fitted. >0x40 JTAG> >0x40 JTAG> >0x30 JTAG> >0x40 JTAG> >0x50 JTAG> >0x40 JTAG>ETM fitted. >0x40 JTAG> >0x40 JTAG> >0x30 JTAG> >0x40 JTAG> >0x50 JTAG> >0x40 JTAG> >0x40 JTAG> >0x40 JTAG> >0x30 JTAG> >0x40 JTAG> >0x50 JTAG> >0x40 JTAG>  FPUnit: 6 code (BP) slots and 2 literal slots >0x40 JTAG> >0x40 JTAG> >0x30 JTAG> >0x40 JTAG> >0x50 JTAG> >0x40 JTAG>
 >0x40 JTAG> >0x40 JTAG> >0x30 JTAG> >0x30 JTAG> >0x50 JTAG> >0x40 JTAG> >0x80 JTAG> >0x40 JTAG> >0x30 JTAG> >0x40 JTAG> >0x50 JTAG> >0x40 JTAG> ScanLen=9 NumDevices=2 aId[0]=0x3BA00477 aIrRead[0]=0 aScanLen[0]=0 aScanRead[0]=0 (0069ms, 0600ms total)
T2BC0 000:692 JLINK_JTAG_GetDeviceID(DeviceIndex = 0)  returns 0x3BA00477 (0000ms, 0669ms total)
T2BC0 000:692 JLINK_JTAG_GetDeviceInfo(DeviceIndex = 0)  returns 0x00 (0000ms, 0669ms total)
T2BC0 000:692 JLINK_JTAG_GetDeviceID(DeviceIndex = 1)  returns 0x6414041 (0000ms, 0669ms total)
T2BC0 000:692 JLINK_JTAG_GetDeviceInfo(DeviceIndex = 1)  returns 0x00 (0000ms, 0669ms total)
T2BC0 000:692 JLINK_GetDebugInfo(0x100) -- Value=0xE00FF003  returns 0x00 (0000ms, 0669ms total)
T2BC0 000:694 JLINK_ReadMem (0xE00FFFF0, 0x0010 Bytes, ...) -- CPU is running -- CPU_ReadMem(16 bytes @ 0xE00FFFF0) -- Data:  0D 00 00 00 10 00 00 00 05 00 00 00 B1 00 00 00  returns 0x00 (0004ms, 0669ms total)
T2BC0 000:698 JLINK_ReadMem (0xE00FFFD0, 0x0020 Bytes, ...) -- CPU is running -- CPU_ReadMem(32 bytes @ 0xE00FFFD0) -- Data:  00 00 00 00 00 00 00 00 00 00 00 00 00 00 00 00 ...  returns 0x00 (0001ms, 0673ms total)
T2BC0 000:699 JLINK_ReadMem (0xE00FF000, 0x0018 Bytes, ...) -- CPU is running -- CPU_ReadMem(24 bytes @ 0xE00FF000) -- Data:  03 F0 F0 FF 03 20 F0 FF 03 30 F0 FF 03 10 F0 FF ...  returns 0x00 (0001ms, 0674ms total)
T2BC0 000:700 JLINK_ReadMemU32(0xE000ED00, 0x0001 Items, ...) -- CPU is running -- CPU_ReadMem(4 bytes @ 0xE000ED00) -- Data:  31 C2 1F 41  returns 0x01 (0001ms, 0675ms total)
T2BC0 000:701 JLINK_SetResetType(JLINKARM_RESET_TYPE_NORMAL)  returns JLINKARM_RESET_TYPE_NORMAL (0000ms, 0676ms total)
T2BC0 000:701 JLINK_Reset() >0x308 JTAG>TotalIRLen = 9, IRPrint = 0x0011 >0x30 JTAG> >0x210 JTAG> >0x80 JTAG> >0x40 JTAG> >0x40 JTAG> >0x50 JTAG> >0x40 JTAG> >0x40 JTAG> >0x40 JTAG> >0x50 JTAG> >0x40 JTAG> >0x50 JTAG> >0x40 JTAG> >0x40 JTAG> >0x40 JTAG> >0x30 JTAG> >0x40 JTAG> >0x50 JTAG> >0x40 JTAG> >0x38 JTAG> >0x80 JTAG> >0x40 JTAG> >0x40 JTAG> >0x50 JTAG> >0x40 JTAG> >0x40 JTAG> >0x40 JTAG> >0x50 JTAG> >0x40 JTAG> >0x40 JTAG> >0x30 JTAG> >0x40 JTAG> >0x40 JTAG> >0x40 JTAG> >0x40 JTAG> >0x40 JTAG>
 >0x50 JTAG> >0x40 JTAG> >0x80 JTAG> >0x40 JTAG> >0x30 JTAG> >0x40 JTAG> >0x40 JTAG> >0x40 JTAG> >0x40 JTAG> >0x40 JTAG> >0x50 JTAG> >0x40 JTAG> >0x80 JTAG> >0x40 JTAG> >0x30 JTAG> >0x40 JTAG> >0x50 JTAG> >0x40 JTAG> >0x40 JTAG> >0x40 JTAG> >0x30 JTAG> >0x40 JTAG> >0x50 JTAG> >0x40 JTAG>Found Cortex-M3 r1p1, Little endian. >0x50 JTAG> >0x50 JTAG> >0x40 JTAG> >0x40 JTAG> >0x30 JTAG> >0x30 JTAG> >0x50 JTAG> >0x40 JTAG> >0x80 JTAG> >0x40 JTAG> >0x30 JTAG> >0x40 JTAG> >0x50 JTAG> >0x40 JTAG> >0x40 JTAG>
 >0x40 JTAG> >0x30 JTAG> >0x40 JTAG> >0x50 JTAG> >0x40 JTAG>TPIU fitted. >0x40 JTAG> >0x40 JTAG> >0x30 JTAG> >0x40 JTAG> >0x50 JTAG> >0x40 JTAG>ETM fitted. >0x40 JTAG> >0x40 JTAG> >0x30 JTAG> >0x40 JTAG> >0x50 JTAG> >0x40 JTAG> >0x40 JTAG> >0x40 JTAG> >0x30 JTAG> >0x40 JTAG> >0x50 JTAG> >0x40 JTAG>  FPUnit: 6 code (BP) slots and 2 literal slots >0x40 JTAG> >0x40 JTAG> >0x30 JTAG> >0x40 JTAG> >0x50 JTAG> >0x40 JTAG> >0x40 JTAG> >0x40 JTAG> >0x30 JTAG> >0x40 JTAG> >0x50 JTAG> >0x40 JTAG> >0x48 JTAG>
 >0x80 JTAG> >0x40 JTAG> >0x40 JTAG> >0x50 JTAG> >0x40 JTAG> >0x40 JTAG> >0x40 JTAG> >0x50 JTAG> >0x40 JTAG> >0x40 JTAG> >0x30 JTAG> >0x40 JTAG> >0x40 JTAG> >0x40 JTAG> >0x40 JTAG> >0x40 JTAG> >0x50 JTAG> >0x40 JTAG> >0x80 JTAG> >0x40 JTAG> >0x30 JTAG> >0x40 JTAG> >0x40 JTAG> >0x40 JTAG> >0x40 JTAG> >0x40 JTAG> >0x50 JTAG> >0x40 JTAG> >0x80 JTAG> >0x40 JTAG> >0x30 JTAG> >0x40 JTAG> >0x50 JTAG> >0x40 JTAG> >0x40 JTAG> >0x40 JTAG> >0x30 JTAG> >0x40 JTAG> >0x50 JTAG> >0x40 JTAG>
Found Cortex-M3 r1p1, Little endian. >0x50 JTAG> >0x50 JTAG> >0x40 JTAG> >0x40 JTAG> >0x30 JTAG> >0x30 JTAG> >0x50 JTAG> >0x40 JTAG> >0x80 JTAG> >0x40 JTAG> >0x30 JTAG> >0x40 JTAG> >0x50 JTAG> >0x40 JTAG> >0x40 JTAG> >0x40 JTAG> >0x30 JTAG> >0x40 JTAG> >0x50 JTAG> >0x40 JTAG>TPIU fitted. >0x40 JTAG> >0x40 JTAG> >0x30 JTAG> >0x40 JTAG> >0x50 JTAG> >0x40 JTAG>ETM fitted. >0x40 JTAG> >0x40 JTAG> >0x30 JTAG> >0x40 JTAG> >0x50 JTAG> >0x40 JTAG> >0x40 JTAG> >0x40 JTAG> >0x30 JTAG> >0x40 JTAG> >0x50 JTAG>
 >0x40 JTAG>  FPUnit: 6 code (BP) slots and 2 literal slots >0x40 JTAG> >0x40 JTAG> >0x30 JTAG> >0x40 JTAG> >0x50 JTAG> >0x40 JTAG> >0x40 JTAG> >0x40 JTAG> >0x30 JTAG> >0x40 JTAG> >0x50 JTAG> >0x40 JTAG> -- CPU is running -- CPU_WriteMem(4 bytes @ 0xE000EDF0) -- CPU is running -- CPU_WriteMem(4 bytes @ 0xE000EDFC) -- CPU is running -- CPU_WriteMem(4 bytes @ 0xE000ED0C) -- CPU is running -- CPU_ReadMem(4 bytes @ 0xE000EDF0) -- CPU is running -- CPU_ReadMem(4 bytes @ 0xE000EDF0) -- CPU is running
 -- CPU_WriteMem(4 bytes @ 0xE000EDF0) -- CPU is running -- CPU_WriteMem(4 bytes @ 0xE000EDFC) -- CPU is running -- CPU_ReadMem(4 bytes @ 0xE000EDF0) >0x90 JTAG> >0x40 JTAG> >0x30 JTAG> >0x40 JTAG> >0x50 JTAG> >0x40 JTAG> -- CPU_WriteMem(4 bytes @ 0xE000EDFC) -- CPU_WriteMem(4 bytes @ 0xE0001028) -- CPU_WriteMem(4 bytes @ 0xE0001038) -- CPU_WriteMem(4 bytes @ 0xE0001048) -- CPU_WriteMem(4 bytes @ 0xE0001058) (0140ms, 0676ms total)
T2BC0 000:841 JLINK_Halt()  returns 0x00 (0000ms, 0816ms total)
T2BC0 000:841 JLINK_IsHalted()  returns TRUE (0000ms, 0816ms total)
T2BC0 000:841 JLINK_ReadMemU32(0xE000EDF0, 0x0001 Items, ...) -- CPU_ReadMem(4 bytes @ 0xE000EDF0) -- Data:  03 00 03 00  returns 0x01 (0001ms, 0816ms total)
T2BC0 000:842 JLINK_WriteU32(0xE000EDF0, 0xA05F0003) -- CPU_WriteMem(4 bytes @ 0xE000EDF0)  returns 0x00 (0000ms, 0817ms total)
T2BC0 000:842 JLINK_WriteU32(0xE000EDFC, 0x01000000) -- CPU_WriteMem(4 bytes @ 0xE000EDFC)  returns 0x00 (0001ms, 0817ms total)
T2BC0 000:848 JLINK_GetHWStatus(...)  returns 0x00 (0001ms, 0818ms total)
T2BC0 000:854 JLINK_GetNumBPUnits(Type = 0xFFFFFF00)  returns 0x06 (0000ms, 0819ms total)
T2BC0 000:854 JLINK_GetNumBPUnits(Type = 0xF0)  returns 0x2000 (0000ms, 0819ms total)
T2BC0 000:854 JLINK_GetNumWPUnits()  returns 0x04 (0000ms, 0819ms total)
T2BC0 000:857 JLINK_GetSpeed()  returns 0x7D0 (0000ms, 0819ms total)
T2BC0 000:859 JLINK_ReadMemU32(0xE000E004, 0x0001 Items, ...) -- CPU_ReadMem(4 bytes @ 0xE000E004) -- Data:  01 00 00 00  returns 0x01 (0001ms, 0819ms total)
T2BC0 000:860 JLINK_ReadMemU32(0xE000E004, 0x0001 Items, ...) -- CPU_ReadMem(4 bytes @ 0xE000E004) -- Data:  01 00 00 00  returns 0x01 (0001ms, 0820ms total)
T2BC0 000:861 JLINK_WriteMem(0xE0001000, 0x001C Bytes, ...) -- Data:  01 00 00 00 00 00 00 00 00 00 00 00 00 00 00 00 ... -- CPU_WriteMem(28 bytes @ 0xE0001000)  returns 0x1C (0001ms, 0821ms total)
T2BC0 000:862 JLINK_ReadMem (0xE0001000, 0x001C Bytes, ...) -- CPU_ReadMem(28 bytes @ 0xE0001000) -- Data:  01 00 00 40 00 00 00 00 00 00 00 00 00 00 00 00 ...  returns 0x00 (0001ms, 0822ms total)
T2BC0 000:863 JLINK_Halt()  returns 0x00 (0000ms, 0823ms total)
T2BC0 000:863 JLINK_IsHalted()  returns TRUE (0000ms, 0823ms total)
T2BC0 000:865 JLINK_WriteMem(0x20000000, 0x0164 Bytes, ...) -- Data:  00 BE 0A E0 0D 78 2D 06 68 40 08 24 40 00 00 D3 ... -- CPU_WriteMem(356 bytes @ 0x20000000)  returns 0x164 (0003ms, 0823ms total)
T2BC0 000:868 JLINK_WriteReg(R0, 0x08000000)  returns 0x00 (0000ms, 0826ms total)
T2BC0 000:868 JLINK_WriteReg(R1, 0x007A1200)  returns 0x00 (0000ms, 0826ms total)
T2BC0 000:868 JLINK_WriteReg(R2, 0x00000001)  returns 0x00 (0000ms, 0826ms total)
T2BC0 000:868 JLINK_WriteReg(R3, 0x00000000)  returns 0x00 (0000ms, 0826ms total)
T2BC0 000:868 JLINK_WriteReg(R4, 0x00000000)  returns 0x00 (0000ms, 0826ms total)
T2BC0 000:868 JLINK_WriteReg(R5, 0x00000000)  returns 0x00 (0000ms, 0826ms total)
T2BC0 000:868 JLINK_WriteReg(R6, 0x00000000)  returns 0x00 (0000ms, 0826ms total)
T2BC0 000:868 JLINK_WriteReg(R7, 0x00000000)  returns 0x00 (0000ms, 0826ms total)
T2BC0 000:868 JLINK_WriteReg(R8, 0x00000000)  returns 0x00 (0000ms, 0826ms total)
T2BC0 000:868 JLINK_WriteReg(R9, 0x20000160)  returns 0x00 (0000ms, 0826ms total)
T2BC0 000:868 JLINK_WriteReg(R10, 0x00000000)  returns 0x00 (0000ms, 0826ms total)
T2BC0 000:868 JLINK_WriteReg(R11, 0x00000000)  returns 0x00 (0000ms, 0826ms total)
T2BC0 000:868 JLINK_WriteReg(R12, 0x00000000)  returns 0x00 (0000ms, 0826ms total)
T2BC0 000:868 JLINK_WriteReg(R13, 0x20000800)  returns 0x00 (0000ms, 0826ms total)
T2BC0 000:868 JLINK_WriteReg(R14, 0x20000001)  returns 0x00 (0000ms, 0826ms total)
T2BC0 000:868 JLINK_WriteReg(R15, 0x20000038)  returns 0x00 (0000ms, 0826ms total)
T2BC0 000:868 JLINK_WriteReg(XPSR, 0x01000000)  returns 0x00 (0000ms, 0826ms total)
T2BC0 000:868 JLINK_WriteReg(MSP, 0x20000800)  returns 0x00 (0000ms, 0826ms total)
T2BC0 000:868 JLINK_WriteReg(PSP, 0x20000800)  returns 0x00 (0000ms, 0826ms total)
T2BC0 000:868 JLINK_WriteReg(CFBP, 0x00000000)  returns 0x00 (0000ms, 0826ms total)
T2BC0 000:868 JLINK_SetBPEx(Addr = 0x20000000, Type = 0xFFFFFFF2) -- CPU_ReadMem(2 bytes @ 0x20000000)  returns 0x00000001 (0001ms, 0826ms total)
T2BC0 000:869 JLINK_Go() -- CPU_WriteMem(2 bytes @ 0x20000000) -- CPU_WriteMem(4 bytes @ 0xE0002008) -- CPU_WriteMem(4 bytes @ 0xE000200C) -- CPU_WriteMem(4 bytes @ 0xE0002010) -- CPU_WriteMem(4 bytes @ 0xE0002014) -- CPU_WriteMem(4 bytes @ 0xE0002018) -- CPU_WriteMem(4 bytes @ 0xE000201C) (0008ms, 0827ms total)
T2BC0 000:877 JLINK_IsHalted() -- CPU_ReadMem(2 bytes @ 0x20000000)  returns TRUE (0005ms, 0835ms total)
T2BC0 000:882 JLINK_ReadReg(R15)  returns 0x20000000 (0001ms, 0835ms total)
T2BC0 000:883 JLINK_ClrBPEx(BPHandle = 0x00000001)  returns 0x00 (0000ms, 0836ms total)
T2BC0 000:883 JLINK_ReadReg(R0)  returns 0x00000000 (0000ms, 0836ms total)
T2BC0 000:884 JLINK_WriteReg(R0, 0x08000000)  returns 0x00 (0000ms, 0836ms total)
T2BC0 000:884 JLINK_WriteReg(R1, 0x007A1200)  returns 0x00 (0000ms, 0836ms total)
T2BC0 000:884 JLINK_WriteReg(R2, 0x00000001)  returns 0x00 (0000ms, 0836ms total)
T2BC0 000:884 JLINK_WriteReg(R3, 0x00000000)  returns 0x00 (0000ms, 0836ms total)
T2BC0 000:884 JLINK_WriteReg(R4, 0x00000000)  returns 0x00 (0000ms, 0836ms total)
T2BC0 000:884 JLINK_WriteReg(R5, 0x00000000)  returns 0x00 (0000ms, 0836ms total)
T2BC0 000:884 JLINK_WriteReg(R6, 0x00000000)  returns 0x00 (0000ms, 0836ms total)
T2BC0 000:884 JLINK_WriteReg(R7, 0x00000000)  returns 0x00 (0000ms, 0836ms total)
T2BC0 000:884 JLINK_WriteReg(R8, 0x00000000)  returns 0x00 (0000ms, 0836ms total)
T2BC0 000:884 JLINK_WriteReg(R9, 0x20000160)  returns 0x00 (0000ms, 0836ms total)
T2BC0 000:884 JLINK_WriteReg(R10, 0x00000000)  returns 0x00 (0000ms, 0836ms total)
T2BC0 000:884 JLINK_WriteReg(R11, 0x00000000)  returns 0x00 (0000ms, 0836ms total)
T2BC0 000:884 JLINK_WriteReg(R12, 0x00000000)  returns 0x00 (0000ms, 0836ms total)
T2BC0 000:884 JLINK_WriteReg(R13, 0x20000800)  returns 0x00 (0000ms, 0836ms total)
T2BC0 000:884 JLINK_WriteReg(R14, 0x20000001)  returns 0x00 (0000ms, 0836ms total)
T2BC0 000:884 JLINK_WriteReg(R15, 0x2000007C)  returns 0x00 (0000ms, 0836ms total)
T2BC0 000:884 JLINK_WriteReg(XPSR, 0x01000000)  returns 0x00 (0000ms, 0836ms total)
T2BC0 000:884 JLINK_WriteReg(MSP, 0x20000800)  returns 0x00 (0000ms, 0836ms total)
T2BC0 000:884 JLINK_WriteReg(PSP, 0x20000800)  returns 0x00 (0000ms, 0836ms total)
T2BC0 000:884 JLINK_WriteReg(CFBP, 0x00000000)  returns 0x00 (0000ms, 0836ms total)
T2BC0 000:884 JLINK_SetBPEx(Addr = 0x20000000, Type = 0xFFFFFFF2)  returns 0x00000002 (0000ms, 0836ms total)
T2BC0 000:884 JLINK_Go() -- CPU_WriteMem(4 bytes @ 0xE0002008) -- CPU_WriteMem(4 bytes @ 0xE000200C) -- CPU_WriteMem(4 bytes @ 0xE0002010) -- CPU_WriteMem(4 bytes @ 0xE0002014) -- CPU_WriteMem(4 bytes @ 0xE0002018) -- CPU_WriteMem(4 bytes @ 0xE000201C) (0006ms, 0836ms total)
T2BC0 000:890 JLINK_IsHalted()  returns FALSE (0001ms, 0842ms total)
T2BC0 000:941 JLINK_IsHalted() -- CPU_ReadMem(2 bytes @ 0x20000000)  returns TRUE (0006ms, 0842ms total)
T2BC0 000:947 JLINK_ReadReg(R15)  returns 0x20000000 (0000ms, 0842ms total)
T2BC0 000:947 JLINK_ClrBPEx(BPHandle = 0x00000002)  returns 0x00 (0000ms, 0842ms total)
T2BC0 000:947 JLINK_ReadReg(R0)  returns 0x00000000 (0000ms, 0842ms total)
T2BC0 000:997 JLINK_WriteReg(R0, 0x00000001)  returns 0x00 (0000ms, 0842ms total)
T2BC0 000:997 JLINK_WriteReg(R1, 0x007A1200)  returns 0x00 (0000ms, 0842ms total)
T2BC0 000:997 JLINK_WriteReg(R2, 0x00000001)  returns 0x00 (0000ms, 0842ms total)
T2BC0 000:997 JLINK_WriteReg(R3, 0x00000000)  returns 0x00 (0000ms, 0842ms total)
T2BC0 000:997 JLINK_WriteReg(R4, 0x00000000)  returns 0x00 (0000ms, 0842ms total)
T2BC0 000:997 JLINK_WriteReg(R5, 0x00000000)  returns 0x00 (0000ms, 0842ms total)
T2BC0 000:997 JLINK_WriteReg(R6, 0x00000000)  returns 0x00 (0000ms, 0842ms total)
T2BC0 000:997 JLINK_WriteReg(R7, 0x00000000)  returns 0x00 (0000ms, 0842ms total)
T2BC0 000:997 JLINK_WriteReg(R8, 0x00000000)  returns 0x00 (0000ms, 0842ms total)
T2BC0 000:998 JLINK_WriteReg(R9, 0x20000160)  returns 0x00 (0000ms, 0842ms total)
T2BC0 000:998 JLINK_WriteReg(R10, 0x00000000)  returns 0x00 (0000ms, 0842ms total)
T2BC0 000:998 JLINK_WriteReg(R11, 0x00000000)  returns 0x00 (0000ms, 0842ms total)
T2BC0 000:998 JLINK_WriteReg(R12, 0x00000000)  returns 0x00 (0000ms, 0842ms total)
T2BC0 000:998 JLINK_WriteReg(R13, 0x20000800)  returns 0x00 (0000ms, 0842ms total)
T2BC0 000:998 JLINK_WriteReg(R14, 0x20000001)  returns 0x00 (0000ms, 0842ms total)
T2BC0 000:998 JLINK_WriteReg(R15, 0x2000006A)  returns 0x00 (0000ms, 0842ms total)
T2BC0 000:998 JLINK_WriteReg(XPSR, 0x01000000)  returns 0x00 (0000ms, 0842ms total)
T2BC0 000:998 JLINK_WriteReg(MSP, 0x20000800)  returns 0x00 (0000ms, 0842ms total)
T2BC0 000:998 JLINK_WriteReg(PSP, 0x20000800)  returns 0x00 (0000ms, 0842ms total)
T2BC0 000:998 JLINK_WriteReg(CFBP, 0x00000000)  returns 0x00 (0000ms, 0842ms total)
T2BC0 000:998 JLINK_SetBPEx(Addr = 0x20000000, Type = 0xFFFFFFF2)  returns 0x00000003 (0000ms, 0842ms total)
T2BC0 000:998 JLINK_Go() -- CPU_WriteMem(4 bytes @ 0xE0002008) -- CPU_WriteMem(4 bytes @ 0xE000200C) -- CPU_WriteMem(4 bytes @ 0xE0002010) -- CPU_WriteMem(4 bytes @ 0xE0002014) -- CPU_WriteMem(4 bytes @ 0xE0002018) -- CPU_WriteMem(4 bytes @ 0xE000201C) (0006ms, 0842ms total)
T2BC0 001:004 JLINK_IsHalted() -- CPU_ReadMem(2 bytes @ 0x20000000)  returns TRUE (0006ms, 0848ms total)
T2BC0 001:010 JLINK_ReadReg(R15)  returns 0x20000000 (0000ms, 0848ms total)
T2BC0 001:010 JLINK_ClrBPEx(BPHandle = 0x00000003)  returns 0x00 (0000ms, 0848ms total)
T2BC0 001:010 JLINK_ReadReg(R0)  returns 0x00000000 (0001ms, 0848ms total)
T2BC0 001:014 JLINK_WriteMem(0x20000000, 0x0164 Bytes, ...) -- Data:  00 BE 0A E0 0D 78 2D 06 68 40 08 24 40 00 00 D3 ... -- CPU_WriteMem(356 bytes @ 0x20000000)  returns 0x164 (0003ms, 0849ms total)
T2BC0 001:017 JLINK_WriteReg(R0, 0x08000000)  returns 0x00 (0000ms, 0852ms total)
T2BC0 001:017 JLINK_WriteReg(R1, 0x007A1200)  returns 0x00 (0000ms, 0852ms total)
T2BC0 001:017 JLINK_WriteReg(R2, 0x00000002)  returns 0x00 (0000ms, 0852ms total)
T2BC0 001:017 JLINK_WriteReg(R3, 0x00000000)  returns 0x00 (0000ms, 0852ms total)
T2BC0 001:017 JLINK_WriteReg(R4, 0x00000000)  returns 0x00 (0000ms, 0852ms total)
T2BC0 001:017 JLINK_WriteReg(R5, 0x00000000)  returns 0x00 (0000ms, 0852ms total)
T2BC0 001:017 JLINK_WriteReg(R6, 0x00000000)  returns 0x00 (0000ms, 0852ms total)
T2BC0 001:017 JLINK_WriteReg(R7, 0x00000000)  returns 0x00 (0000ms, 0852ms total)
T2BC0 001:017 JLINK_WriteReg(R8, 0x00000000)  returns 0x00 (0000ms, 0852ms total)
T2BC0 001:017 JLINK_WriteReg(R9, 0x20000160)  returns 0x00 (0000ms, 0852ms total)
T2BC0 001:017 JLINK_WriteReg(R10, 0x00000000)  returns 0x00 (0000ms, 0852ms total)
T2BC0 001:017 JLINK_WriteReg(R11, 0x00000000)  returns 0x00 (0000ms, 0852ms total)
T2BC0 001:017 JLINK_WriteReg(R12, 0x00000000)  returns 0x00 (0000ms, 0852ms total)
T2BC0 001:017 JLINK_WriteReg(R13, 0x20000800)  returns 0x00 (0000ms, 0852ms total)
T2BC0 001:017 JLINK_WriteReg(R14, 0x20000001)  returns 0x00 (0000ms, 0852ms total)
T2BC0 001:017 JLINK_WriteReg(R15, 0x20000038)  returns 0x00 (0000ms, 0852ms total)
T2BC0 001:017 JLINK_WriteReg(XPSR, 0x01000000)  returns 0x00 (0000ms, 0852ms total)
T2BC0 001:017 JLINK_WriteReg(MSP, 0x20000800)  returns 0x00 (0000ms, 0852ms total)
T2BC0 001:017 JLINK_WriteReg(PSP, 0x20000800)  returns 0x00 (0000ms, 0852ms total)
T2BC0 001:017 JLINK_WriteReg(CFBP, 0x00000000)  returns 0x00 (0000ms, 0852ms total)
T2BC0 001:017 JLINK_SetBPEx(Addr = 0x20000000, Type = 0xFFFFFFF2) -- CPU_ReadMem(2 bytes @ 0x20000000)  returns 0x00000004 (0001ms, 0852ms total)
T2BC0 001:018 JLINK_Go() -- CPU_WriteMem(2 bytes @ 0x20000000) -- CPU_WriteMem(4 bytes @ 0xE0002008) -- CPU_WriteMem(4 bytes @ 0xE000200C) -- CPU_WriteMem(4 bytes @ 0xE0002010) -- CPU_WriteMem(4 bytes @ 0xE0002014) -- CPU_WriteMem(4 bytes @ 0xE0002018) -- CPU_WriteMem(4 bytes @ 0xE000201C) (0008ms, 0853ms total)
T2BC0 001:026 JLINK_IsHalted() -- CPU_ReadMem(2 bytes @ 0x20000000)  returns TRUE (0006ms, 0861ms total)
T2BC0 001:032 JLINK_ReadReg(R15)  returns 0x20000000 (0000ms, 0861ms total)
T2BC0 001:032 JLINK_ClrBPEx(BPHandle = 0x00000004)  returns 0x00 (0000ms, 0861ms total)
T2BC0 001:032 JLINK_ReadReg(R0)  returns 0x00000000 (0000ms, 0861ms total)
T2BC0 001:032 JLINK_WriteMem(0x20000164, 0x0400 Bytes, ...) -- Data:  60 17 00 20 45 01 00 08 4F 07 00 08 05 06 00 08 ... -- CPU_WriteMem(1024 bytes @ 0x20000164)  returns 0x400 (0007ms, 0861ms total)
T2BC0 001:039 JLINK_WriteReg(R0, 0x08000000)  returns 0x00 (0000ms, 0868ms total)
T2BC0 001:039 JLINK_WriteReg(R1, 0x00000400)  returns 0x00 (0000ms, 0868ms total)
T2BC0 001:039 JLINK_WriteReg(R2, 0x20000164)  returns 0x00 (0000ms, 0868ms total)
T2BC0 001:039 JLINK_WriteReg(R3, 0x00000000)  returns 0x00 (0000ms, 0868ms total)
T2BC0 001:039 JLINK_WriteReg(R4, 0x00000000)  returns 0x00 (0000ms, 0868ms total)
T2BC0 001:039 JLINK_WriteReg(R5, 0x00000000)  returns 0x00 (0000ms, 0868ms total)
T2BC0 001:039 JLINK_WriteReg(R6, 0x00000000)  returns 0x00 (0000ms, 0868ms total)
T2BC0 001:039 JLINK_WriteReg(R7, 0x00000000)  returns 0x00 (0000ms, 0868ms total)
T2BC0 001:039 JLINK_WriteReg(R8, 0x00000000)  returns 0x00 (0000ms, 0868ms total)
T2BC0 001:039 JLINK_WriteReg(R9, 0x20000160)  returns 0x00 (0000ms, 0868ms total)
T2BC0 001:039 JLINK_WriteReg(R10, 0x00000000)  returns 0x00 (0000ms, 0868ms total)
T2BC0 001:039 JLINK_WriteReg(R11, 0x00000000)  returns 0x00 (0000ms, 0868ms total)
T2BC0 001:039 JLINK_WriteReg(R12, 0x00000000)  returns 0x00 (0000ms, 0868ms total)
T2BC0 001:039 JLINK_WriteReg(R13, 0x20000800)  returns 0x00 (0000ms, 0868ms total)
T2BC0 001:039 JLINK_WriteReg(R14, 0x20000001)  returns 0x00 (0000ms, 0868ms total)
T2BC0 001:039 JLINK_WriteReg(R15, 0x200000F4)  returns 0x00 (0000ms, 0868ms total)
T2BC0 001:039 JLINK_WriteReg(XPSR, 0x01000000)  returns 0x00 (0000ms, 0868ms total)
T2BC0 001:039 JLINK_WriteReg(MSP, 0x20000800)  returns 0x00 (0000ms, 0868ms total)
T2BC0 001:039 JLINK_WriteReg(PSP, 0x20000800)  returns 0x00 (0000ms, 0868ms total)
T2BC0 001:039 JLINK_WriteReg(CFBP, 0x00000000)  returns 0x00 (0000ms, 0868ms total)
T2BC0 001:039 JLINK_SetBPEx(Addr = 0x20000000, Type = 0xFFFFFFF2)  returns 0x00000005 (0000ms, 0868ms total)
T2BC0 001:039 JLINK_Go() -- CPU_WriteMem(4 bytes @ 0xE0002008) -- CPU_WriteMem(4 bytes @ 0xE000200C) -- CPU_WriteMem(4 bytes @ 0xE0002010) -- CPU_WriteMem(4 bytes @ 0xE0002014) -- CPU_WriteMem(4 bytes @ 0xE0002018) -- CPU_WriteMem(4 bytes @ 0xE000201C) (0007ms, 0868ms total)
T2BC0 001:046 JLINK_IsHalted()  returns FALSE (0000ms, 0875ms total)
T2BC0 001:096 JLINK_IsHalted() -- CPU_ReadMem(2 bytes @ 0x20000000)  returns TRUE (0006ms, 0875ms total)
T2BC0 001:102 JLINK_ReadReg(R15)  returns 0x20000000 (0000ms, 0875ms total)
T2BC0 001:102 JLINK_ClrBPEx(BPHandle = 0x00000005)  returns 0x00 (0000ms, 0875ms total)
T2BC0 001:102 JLINK_ReadReg(R0)  returns 0x00000000 (0000ms, 0875ms total)
T2BC0 001:102 JLINK_WriteMem(0x20000164, 0x0400 Bytes, ...) -- Data:  FC D1 70 47 00 00 00 20 2D E9 FC 5F 00 24 0E 46 ... -- CPU_WriteMem(1024 bytes @ 0x20000164)  returns 0x400 (0007ms, 0875ms total)
T2BC0 001:109 JLINK_WriteReg(R0, 0x08000400)  returns 0x00 (0000ms, 0882ms total)
T2BC0 001:109 JLINK_WriteReg(R1, 0x00000400)  returns 0x00 (0000ms, 0882ms total)
T2BC0 001:109 JLINK_WriteReg(R2, 0x20000164)  returns 0x00 (0000ms, 0882ms total)
T2BC0 001:109 JLINK_WriteReg(R3, 0x00000000)  returns 0x00 (0000ms, 0882ms total)
T2BC0 001:109 JLINK_WriteReg(R4, 0x00000000)  returns 0x00 (0000ms, 0882ms total)
T2BC0 001:109 JLINK_WriteReg(R5, 0x00000000)  returns 0x00 (0000ms, 0882ms total)
T2BC0 001:109 JLINK_WriteReg(R6, 0x00000000)  returns 0x00 (0000ms, 0882ms total)
T2BC0 001:109 JLINK_WriteReg(R7, 0x00000000)  returns 0x00 (0000ms, 0882ms total)
T2BC0 001:109 JLINK_WriteReg(R8, 0x00000000)  returns 0x00 (0000ms, 0882ms total)
T2BC0 001:109 JLINK_WriteReg(R9, 0x20000160)  returns 0x00 (0000ms, 0882ms total)
T2BC0 001:109 JLINK_WriteReg(R10, 0x00000000)  returns 0x00 (0000ms, 0882ms total)
T2BC0 001:109 JLINK_WriteReg(R11, 0x00000000)  returns 0x00 (0000ms, 0882ms total)
T2BC0 001:109 JLINK_WriteReg(R12, 0x00000000)  returns 0x00 (0000ms, 0882ms total)
T2BC0 001:109 JLINK_WriteReg(R13, 0x20000800)  returns 0x00 (0000ms, 0882ms total)
T2BC0 001:109 JLINK_WriteReg(R14, 0x20000001)  returns 0x00 (0000ms, 0882ms total)
T2BC0 001:109 JLINK_WriteReg(R15, 0x200000F4)  returns 0x00 (0000ms, 0882ms total)
T2BC0 001:109 JLINK_WriteReg(XPSR, 0x01000000)  returns 0x00 (0000ms, 0882ms total)
T2BC0 001:109 JLINK_WriteReg(MSP, 0x20000800)  returns 0x00 (0000ms, 0882ms total)
T2BC0 001:109 JLINK_WriteReg(PSP, 0x20000800)  returns 0x00 (0000ms, 0882ms total)
T2BC0 001:109 JLINK_WriteReg(CFBP, 0x00000000)  returns 0x00 (0000ms, 0882ms total)
T2BC0 001:109 JLINK_SetBPEx(Addr = 0x20000000, Type = 0xFFFFFFF2)  returns 0x00000006 (0000ms, 0882ms total)
T2BC0 001:109 JLINK_Go() -- CPU_WriteMem(4 bytes @ 0xE0002008) -- CPU_WriteMem(4 bytes @ 0xE000200C) -- CPU_WriteMem(4 bytes @ 0xE0002010) -- CPU_WriteMem(4 bytes @ 0xE0002014) -- CPU_WriteMem(4 bytes @ 0xE0002018) -- CPU_WriteMem(4 bytes @ 0xE000201C) (0007ms, 0882ms total)
T2BC0 001:116 JLINK_IsHalted()  returns FALSE (0001ms, 0889ms total)
T2BC0 001:167 JLINK_IsHalted() -- CPU_ReadMem(2 bytes @ 0x20000000)  returns TRUE (0006ms, 0889ms total)
T2BC0 001:173 JLINK_ReadReg(R15)  returns 0x20000000 (0000ms, 0889ms total)
T2BC0 001:173 JLINK_ClrBPEx(BPHandle = 0x00000006)  returns 0x00 (0000ms, 0889ms total)
T2BC0 001:173 JLINK_ReadReg(R0)  returns 0x00000000 (0000ms, 0889ms total)
T2BC0 001:173 JLINK_WriteMem(0x20000164, 0x0400 Bytes, ...) -- Data:  FF 10 1E 90 6B A1 75 48 01 F0 EE FB 00 20 02 F0 ... -- CPU_WriteMem(1024 bytes @ 0x20000164)  returns 0x400 (0007ms, 0889ms total)
T2BC0 001:180 JLINK_WriteReg(R0, 0x08000800)  returns 0x00 (0000ms, 0896ms total)
T2BC0 001:180 JLINK_WriteReg(R1, 0x00000400)  returns 0x00 (0000ms, 0896ms total)
T2BC0 001:180 JLINK_WriteReg(R2, 0x20000164)  returns 0x00 (0000ms, 0896ms total)
T2BC0 001:180 JLINK_WriteReg(R3, 0x00000000)  returns 0x00 (0000ms, 0896ms total)
T2BC0 001:180 JLINK_WriteReg(R4, 0x00000000)  returns 0x00 (0000ms, 0896ms total)
T2BC0 001:180 JLINK_WriteReg(R5, 0x00000000)  returns 0x00 (0000ms, 0896ms total)
T2BC0 001:180 JLINK_WriteReg(R6, 0x00000000)  returns 0x00 (0000ms, 0896ms total)
T2BC0 001:180 JLINK_WriteReg(R7, 0x00000000)  returns 0x00 (0000ms, 0896ms total)
T2BC0 001:180 JLINK_WriteReg(R8, 0x00000000)  returns 0x00 (0000ms, 0896ms total)
T2BC0 001:180 JLINK_WriteReg(R9, 0x20000160)  returns 0x00 (0000ms, 0896ms total)
T2BC0 001:180 JLINK_WriteReg(R10, 0x00000000)  returns 0x00 (0000ms, 0896ms total)
T2BC0 001:180 JLINK_WriteReg(R11, 0x00000000)  returns 0x00 (0000ms, 0896ms total)
T2BC0 001:180 JLINK_WriteReg(R12, 0x00000000)  returns 0x00 (0000ms, 0896ms total)
T2BC0 001:180 JLINK_WriteReg(R13, 0x20000800)  returns 0x00 (0000ms, 0896ms total)
T2BC0 001:180 JLINK_WriteReg(R14, 0x20000001)  returns 0x00 (0000ms, 0896ms total)
T2BC0 001:180 JLINK_WriteReg(R15, 0x200000F4)  returns 0x00 (0000ms, 0896ms total)
T2BC0 001:180 JLINK_WriteReg(XPSR, 0x01000000)  returns 0x00 (0000ms, 0896ms total)
T2BC0 001:180 JLINK_WriteReg(MSP, 0x20000800)  returns 0x00 (0000ms, 0896ms total)
T2BC0 001:180 JLINK_WriteReg(PSP, 0x20000800)  returns 0x00 (0000ms, 0896ms total)
T2BC0 001:180 JLINK_WriteReg(CFBP, 0x00000000)  returns 0x00 (0000ms, 0896ms total)
T2BC0 001:180 JLINK_SetBPEx(Addr = 0x20000000, Type = 0xFFFFFFF2)  returns 0x00000007 (0000ms, 0896ms total)
T2BC0 001:180 JLINK_Go() -- CPU_WriteMem(4 bytes @ 0xE0002008) -- CPU_WriteMem(4 bytes @ 0xE000200C) -- CPU_WriteMem(4 bytes @ 0xE0002010) -- CPU_WriteMem(4 bytes @ 0xE0002014) -- CPU_WriteMem(4 bytes @ 0xE0002018) -- CPU_WriteMem(4 bytes @ 0xE000201C) (0007ms, 0896ms total)
T2BC0 001:187 JLINK_IsHalted()  returns FALSE (0000ms, 0903ms total)
T2BC0 001:237 JLINK_IsHalted() -- CPU_ReadMem(2 bytes @ 0x20000000)  returns TRUE (0006ms, 0903ms total)
T2BC0 001:243 JLINK_ReadReg(R15)  returns 0x20000000 (0000ms, 0903ms total)
T2BC0 001:243 JLINK_ClrBPEx(BPHandle = 0x00000007)  returns 0x00 (0000ms, 0903ms total)
T2BC0 001:243 JLINK_ReadReg(R0)  returns 0x00000000 (0000ms, 0903ms total)
T2BC0 001:243 JLINK_WriteMem(0x20000164, 0x0400 Bytes, ...) -- Data:  00 80 01 40 01 49 08 60 70 47 00 00 A0 00 30 42 ... -- CPU_WriteMem(1024 bytes @ 0x20000164)  returns 0x400 (0007ms, 0903ms total)
T2BC0 001:250 JLINK_WriteReg(R0, 0x08000C00)  returns 0x00 (0000ms, 0910ms total)
T2BC0 001:250 JLINK_WriteReg(R1, 0x00000400)  returns 0x00 (0000ms, 0910ms total)
T2BC0 001:250 JLINK_WriteReg(R2, 0x20000164)  returns 0x00 (0000ms, 0910ms total)
T2BC0 001:250 JLINK_WriteReg(R3, 0x00000000)  returns 0x00 (0000ms, 0910ms total)
T2BC0 001:250 JLINK_WriteReg(R4, 0x00000000)  returns 0x00 (0000ms, 0910ms total)
T2BC0 001:250 JLINK_WriteReg(R5, 0x00000000)  returns 0x00 (0000ms, 0910ms total)
T2BC0 001:250 JLINK_WriteReg(R6, 0x00000000)  returns 0x00 (0000ms, 0910ms total)
T2BC0 001:250 JLINK_WriteReg(R7, 0x00000000)  returns 0x00 (0000ms, 0910ms total)
T2BC0 001:250 JLINK_WriteReg(R8, 0x00000000)  returns 0x00 (0000ms, 0910ms total)
T2BC0 001:250 JLINK_WriteReg(R9, 0x20000160)  returns 0x00 (0000ms, 0910ms total)
T2BC0 001:250 JLINK_WriteReg(R10, 0x00000000)  returns 0x00 (0000ms, 0910ms total)
T2BC0 001:250 JLINK_WriteReg(R11, 0x00000000)  returns 0x00 (0000ms, 0910ms total)
T2BC0 001:250 JLINK_WriteReg(R12, 0x00000000)  returns 0x00 (0000ms, 0910ms total)
T2BC0 001:250 JLINK_WriteReg(R13, 0x20000800)  returns 0x00 (0000ms, 0910ms total)
T2BC0 001:250 JLINK_WriteReg(R14, 0x20000001)  returns 0x00 (0000ms, 0910ms total)
T2BC0 001:250 JLINK_WriteReg(R15, 0x200000F4)  returns 0x00 (0000ms, 0910ms total)
T2BC0 001:250 JLINK_WriteReg(XPSR, 0x01000000)  returns 0x00 (0000ms, 0910ms total)
T2BC0 001:250 JLINK_WriteReg(MSP, 0x20000800)  returns 0x00 (0000ms, 0910ms total)
T2BC0 001:250 JLINK_WriteReg(PSP, 0x20000800)  returns 0x00 (0000ms, 0910ms total)
T2BC0 001:250 JLINK_WriteReg(CFBP, 0x00000000)  returns 0x00 (0000ms, 0910ms total)
T2BC0 001:250 JLINK_SetBPEx(Addr = 0x20000000, Type = 0xFFFFFFF2)  returns 0x00000008 (0000ms, 0910ms total)
T2BC0 001:250 JLINK_Go() -- CPU_WriteMem(4 bytes @ 0xE0002008) -- CPU_WriteMem(4 bytes @ 0xE000200C) -- CPU_WriteMem(4 bytes @ 0xE0002010) -- CPU_WriteMem(4 bytes @ 0xE0002014) -- CPU_WriteMem(4 bytes @ 0xE0002018) -- CPU_WriteMem(4 bytes @ 0xE000201C) (0006ms, 0910ms total)
T2BC0 001:256 JLINK_IsHalted()  returns FALSE (0001ms, 0916ms total)
T2BC0 001:307 JLINK_IsHalted() -- CPU_ReadMem(2 bytes @ 0x20000000)  returns TRUE (0006ms, 0916ms total)
T2BC0 001:313 JLINK_ReadReg(R15)  returns 0x20000000 (0000ms, 0916ms total)
T2BC0 001:313 JLINK_ClrBPEx(BPHandle = 0x00000008)  returns 0x00 (0000ms, 0916ms total)
T2BC0 001:313 JLINK_ReadReg(R0)  returns 0x00000000 (0000ms, 0916ms total)
T2BC0 001:313 JLINK_WriteMem(0x20000164, 0x0400 Bytes, ...) -- Data:  C1 F3 07 22 14 43 C4 84 C1 F3 46 01 80 F8 28 10 ... -- CPU_WriteMem(1024 bytes @ 0x20000164)  returns 0x400 (0007ms, 0916ms total)
T2BC0 001:320 JLINK_WriteReg(R0, 0x08001000)  returns 0x00 (0000ms, 0923ms total)
T2BC0 001:320 JLINK_WriteReg(R1, 0x00000400)  returns 0x00 (0000ms, 0923ms total)
T2BC0 001:320 JLINK_WriteReg(R2, 0x20000164)  returns 0x00 (0000ms, 0923ms total)
T2BC0 001:320 JLINK_WriteReg(R3, 0x00000000)  returns 0x00 (0000ms, 0923ms total)
T2BC0 001:320 JLINK_WriteReg(R4, 0x00000000)  returns 0x00 (0000ms, 0923ms total)
T2BC0 001:320 JLINK_WriteReg(R5, 0x00000000)  returns 0x00 (0000ms, 0923ms total)
T2BC0 001:320 JLINK_WriteReg(R6, 0x00000000)  returns 0x00 (0000ms, 0923ms total)
T2BC0 001:320 JLINK_WriteReg(R7, 0x00000000)  returns 0x00 (0000ms, 0923ms total)
T2BC0 001:320 JLINK_WriteReg(R8, 0x00000000)  returns 0x00 (0000ms, 0923ms total)
T2BC0 001:320 JLINK_WriteReg(R9, 0x20000160)  returns 0x00 (0000ms, 0923ms total)
T2BC0 001:320 JLINK_WriteReg(R10, 0x00000000)  returns 0x00 (0000ms, 0923ms total)
T2BC0 001:320 JLINK_WriteReg(R11, 0x00000000)  returns 0x00 (0000ms, 0923ms total)
T2BC0 001:320 JLINK_WriteReg(R12, 0x00000000)  returns 0x00 (0000ms, 0923ms total)
T2BC0 001:320 JLINK_WriteReg(R13, 0x20000800)  returns 0x00 (0000ms, 0923ms total)
T2BC0 001:320 JLINK_WriteReg(R14, 0x20000001)  returns 0x00 (0000ms, 0923ms total)
T2BC0 001:320 JLINK_WriteReg(R15, 0x200000F4)  returns 0x00 (0000ms, 0923ms total)
T2BC0 001:320 JLINK_WriteReg(XPSR, 0x01000000)  returns 0x00 (0000ms, 0923ms total)
T2BC0 001:320 JLINK_WriteReg(MSP, 0x20000800)  returns 0x00 (0000ms, 0923ms total)
T2BC0 001:320 JLINK_WriteReg(PSP, 0x20000800)  returns 0x00 (0000ms, 0923ms total)
T2BC0 001:320 JLINK_WriteReg(CFBP, 0x00000000)  returns 0x00 (0000ms, 0923ms total)
T2BC0 001:320 JLINK_SetBPEx(Addr = 0x20000000, Type = 0xFFFFFFF2)  returns 0x00000009 (0000ms, 0923ms total)
T2BC0 001:320 JLINK_Go() -- CPU_WriteMem(4 bytes @ 0xE0002008) -- CPU_WriteMem(4 bytes @ 0xE000200C) -- CPU_WriteMem(4 bytes @ 0xE0002010) -- CPU_WriteMem(4 bytes @ 0xE0002014) -- CPU_WriteMem(4 bytes @ 0xE0002018) -- CPU_WriteMem(4 bytes @ 0xE000201C) (0007ms, 0923ms total)
T2BC0 001:327 JLINK_IsHalted()  returns FALSE (0001ms, 0930ms total)
T2BC0 001:378 JLINK_IsHalted() -- CPU_ReadMem(2 bytes @ 0x20000000)  returns TRUE (0006ms, 0930ms total)
T2BC0 001:384 JLINK_ReadReg(R15)  returns 0x20000000 (0000ms, 0930ms total)
T2BC0 001:384 JLINK_ClrBPEx(BPHandle = 0x00000009)  returns 0x00 (0000ms, 0930ms total)
T2BC0 001:384 JLINK_ReadReg(R0)  returns 0x00000000 (0000ms, 0930ms total)
T2BC0 001:384 JLINK_WriteMem(0x20000164, 0x0400 Bytes, ...) -- Data:  F1 FE 2A 28 2E D1 1F 49 48 EA 01 00 28 60 C5 E9 ... -- CPU_WriteMem(1024 bytes @ 0x20000164)  returns 0x400 (0007ms, 0930ms total)
T2BC0 001:391 JLINK_WriteReg(R0, 0x08001400)  returns 0x00 (0000ms, 0937ms total)
T2BC0 001:391 JLINK_WriteReg(R1, 0x00000400)  returns 0x00 (0000ms, 0937ms total)
T2BC0 001:391 JLINK_WriteReg(R2, 0x20000164)  returns 0x00 (0000ms, 0937ms total)
T2BC0 001:391 JLINK_WriteReg(R3, 0x00000000)  returns 0x00 (0000ms, 0937ms total)
T2BC0 001:391 JLINK_WriteReg(R4, 0x00000000)  returns 0x00 (0000ms, 0937ms total)
T2BC0 001:391 JLINK_WriteReg(R5, 0x00000000)  returns 0x00 (0000ms, 0937ms total)
T2BC0 001:391 JLINK_WriteReg(R6, 0x00000000)  returns 0x00 (0000ms, 0937ms total)
T2BC0 001:391 JLINK_WriteReg(R7, 0x00000000)  returns 0x00 (0000ms, 0937ms total)
T2BC0 001:391 JLINK_WriteReg(R8, 0x00000000)  returns 0x00 (0000ms, 0937ms total)
T2BC0 001:391 JLINK_WriteReg(R9, 0x20000160)  returns 0x00 (0000ms, 0937ms total)
T2BC0 001:391 JLINK_WriteReg(R10, 0x00000000)  returns 0x00 (0000ms, 0937ms total)
T2BC0 001:391 JLINK_WriteReg(R11, 0x00000000)  returns 0x00 (0000ms, 0937ms total)
T2BC0 001:391 JLINK_WriteReg(R12, 0x00000000)  returns 0x00 (0000ms, 0937ms total)
T2BC0 001:391 JLINK_WriteReg(R13, 0x20000800)  returns 0x00 (0000ms, 0937ms total)
T2BC0 001:391 JLINK_WriteReg(R14, 0x20000001)  returns 0x00 (0000ms, 0937ms total)
T2BC0 001:391 JLINK_WriteReg(R15, 0x200000F4)  returns 0x00 (0000ms, 0937ms total)
T2BC0 001:391 JLINK_WriteReg(XPSR, 0x01000000)  returns 0x00 (0000ms, 0937ms total)
T2BC0 001:391 JLINK_WriteReg(MSP, 0x20000800)  returns 0x00 (0000ms, 0937ms total)
T2BC0 001:391 JLINK_WriteReg(PSP, 0x20000800)  returns 0x00 (0000ms, 0937ms total)
T2BC0 001:391 JLINK_WriteReg(CFBP, 0x00000000)  returns 0x00 (0000ms, 0937ms total)
T2BC0 001:391 JLINK_SetBPEx(Addr = 0x20000000, Type = 0xFFFFFFF2)  returns 0x0000000A (0000ms, 0937ms total)
T2BC0 001:391 JLINK_Go() -- CPU_WriteMem(4 bytes @ 0xE0002008) -- CPU_WriteMem(4 bytes @ 0xE000200C) -- CPU_WriteMem(4 bytes @ 0xE0002010) -- CPU_WriteMem(4 bytes @ 0xE0002014) -- CPU_WriteMem(4 bytes @ 0xE0002018) -- CPU_WriteMem(4 bytes @ 0xE000201C) (0007ms, 0937ms total)
T2BC0 001:398 JLINK_IsHalted()  returns FALSE (0001ms, 0944ms total)
T2BC0 001:449 JLINK_IsHalted() -- CPU_ReadMem(2 bytes @ 0x20000000)  returns TRUE (0005ms, 0944ms total)
T2BC0 001:455 JLINK_ReadReg(R15)  returns 0x20000000 (0000ms, 0944ms total)
T2BC0 001:455 JLINK_ClrBPEx(BPHandle = 0x0000000A)  returns 0x00 (0000ms, 0944ms total)
T2BC0 001:455 JLINK_ReadReg(R0)  returns 0x00000000 (0000ms, 0944ms total)
T2BC0 001:455 JLINK_WriteMem(0x20000164, 0x0400 Bytes, ...) -- Data:  00 28 E9 D1 B8 69 00 28 E6 D1 38 78 2A 28 F5 D0 ... -- CPU_WriteMem(1024 bytes @ 0x20000164)  returns 0x400 (0007ms, 0944ms total)
T2BC0 001:462 JLINK_WriteReg(R0, 0x08001800)  returns 0x00 (0000ms, 0951ms total)
T2BC0 001:462 JLINK_WriteReg(R1, 0x00000400)  returns 0x00 (0000ms, 0951ms total)
T2BC0 001:462 JLINK_WriteReg(R2, 0x20000164)  returns 0x00 (0000ms, 0951ms total)
T2BC0 001:462 JLINK_WriteReg(R3, 0x00000000)  returns 0x00 (0000ms, 0951ms total)
T2BC0 001:462 JLINK_WriteReg(R4, 0x00000000)  returns 0x00 (0000ms, 0951ms total)
T2BC0 001:462 JLINK_WriteReg(R5, 0x00000000)  returns 0x00 (0000ms, 0951ms total)
T2BC0 001:462 JLINK_WriteReg(R6, 0x00000000)  returns 0x00 (0000ms, 0951ms total)
T2BC0 001:462 JLINK_WriteReg(R7, 0x00000000)  returns 0x00 (0000ms, 0951ms total)
T2BC0 001:462 JLINK_WriteReg(R8, 0x00000000)  returns 0x00 (0000ms, 0951ms total)
T2BC0 001:462 JLINK_WriteReg(R9, 0x20000160)  returns 0x00 (0000ms, 0951ms total)
T2BC0 001:462 JLINK_WriteReg(R10, 0x00000000)  returns 0x00 (0000ms, 0951ms total)
T2BC0 001:462 JLINK_WriteReg(R11, 0x00000000)  returns 0x00 (0000ms, 0951ms total)
T2BC0 001:462 JLINK_WriteReg(R12, 0x00000000)  returns 0x00 (0000ms, 0951ms total)
T2BC0 001:462 JLINK_WriteReg(R13, 0x20000800)  returns 0x00 (0000ms, 0951ms total)
T2BC0 001:462 JLINK_WriteReg(R14, 0x20000001)  returns 0x00 (0000ms, 0951ms total)
T2BC0 001:462 JLINK_WriteReg(R15, 0x200000F4)  returns 0x00 (0000ms, 0951ms total)
T2BC0 001:462 JLINK_WriteReg(XPSR, 0x01000000)  returns 0x00 (0000ms, 0951ms total)
T2BC0 001:462 JLINK_WriteReg(MSP, 0x20000800)  returns 0x00 (0000ms, 0951ms total)
T2BC0 001:462 JLINK_WriteReg(PSP, 0x20000800)  returns 0x00 (0000ms, 0951ms total)
T2BC0 001:462 JLINK_WriteReg(CFBP, 0x00000000)  returns 0x00 (0000ms, 0951ms total)
T2BC0 001:462 JLINK_SetBPEx(Addr = 0x20000000, Type = 0xFFFFFFF2)  returns 0x0000000B (0000ms, 0951ms total)
T2BC0 001:462 JLINK_Go() -- CPU_WriteMem(4 bytes @ 0xE0002008) -- CPU_WriteMem(4 bytes @ 0xE000200C) -- CPU_WriteMem(4 bytes @ 0xE0002010) -- CPU_WriteMem(4 bytes @ 0xE0002014) -- CPU_WriteMem(4 bytes @ 0xE0002018) -- CPU_WriteMem(4 bytes @ 0xE000201C) (0007ms, 0951ms total)
T2BC0 001:469 JLINK_IsHalted()  returns FALSE (0001ms, 0958ms total)
T2BC0 001:520 JLINK_IsHalted() -- CPU_ReadMem(2 bytes @ 0x20000000)  returns TRUE (0005ms, 0958ms total)
T2BC0 001:525 JLINK_ReadReg(R15)  returns 0x20000000 (0000ms, 0958ms total)
T2BC0 001:525 JLINK_ClrBPEx(BPHandle = 0x0000000B)  returns 0x00 (0000ms, 0958ms total)
T2BC0 001:525 JLINK_ReadReg(R0)  returns 0x00000000 (0000ms, 0958ms total)
T2BC0 001:526 JLINK_WriteMem(0x20000164, 0x0400 Bytes, ...) -- Data:  8D F8 16 50 18 20 8D F8 17 00 05 A9 30 46 FE F7 ... -- CPU_WriteMem(1024 bytes @ 0x20000164)  returns 0x400 (0007ms, 0958ms total)
T2BC0 001:533 JLINK_WriteReg(R0, 0x08001C00)  returns 0x00 (0000ms, 0965ms total)
T2BC0 001:533 JLINK_WriteReg(R1, 0x00000400)  returns 0x00 (0000ms, 0965ms total)
T2BC0 001:533 JLINK_WriteReg(R2, 0x20000164)  returns 0x00 (0000ms, 0965ms total)
T2BC0 001:533 JLINK_WriteReg(R3, 0x00000000)  returns 0x00 (0000ms, 0965ms total)
T2BC0 001:533 JLINK_WriteReg(R4, 0x00000000)  returns 0x00 (0000ms, 0965ms total)
T2BC0 001:533 JLINK_WriteReg(R5, 0x00000000)  returns 0x00 (0000ms, 0965ms total)
T2BC0 001:533 JLINK_WriteReg(R6, 0x00000000)  returns 0x00 (0000ms, 0965ms total)
T2BC0 001:533 JLINK_WriteReg(R7, 0x00000000)  returns 0x00 (0000ms, 0965ms total)
T2BC0 001:533 JLINK_WriteReg(R8, 0x00000000)  returns 0x00 (0000ms, 0965ms total)
T2BC0 001:533 JLINK_WriteReg(R9, 0x20000160)  returns 0x00 (0000ms, 0965ms total)
T2BC0 001:533 JLINK_WriteReg(R10, 0x00000000)  returns 0x00 (0000ms, 0965ms total)
T2BC0 001:533 JLINK_WriteReg(R11, 0x00000000)  returns 0x00 (0000ms, 0965ms total)
T2BC0 001:533 JLINK_WriteReg(R12, 0x00000000)  returns 0x00 (0000ms, 0965ms total)
T2BC0 001:533 JLINK_WriteReg(R13, 0x20000800)  returns 0x00 (0000ms, 0965ms total)
T2BC0 001:533 JLINK_WriteReg(R14, 0x20000001)  returns 0x00 (0000ms, 0965ms total)
T2BC0 001:533 JLINK_WriteReg(R15, 0x200000F4)  returns 0x00 (0000ms, 0965ms total)
T2BC0 001:533 JLINK_WriteReg(XPSR, 0x01000000)  returns 0x00 (0000ms, 0965ms total)
T2BC0 001:533 JLINK_WriteReg(MSP, 0x20000800)  returns 0x00 (0000ms, 0965ms total)
T2BC0 001:533 JLINK_WriteReg(PSP, 0x20000800)  returns 0x00 (0000ms, 0965ms total)
T2BC0 001:533 JLINK_WriteReg(CFBP, 0x00000000)  returns 0x00 (0000ms, 0965ms total)
T2BC0 001:533 JLINK_SetBPEx(Addr = 0x20000000, Type = 0xFFFFFFF2)  returns 0x0000000C (0000ms, 0965ms total)
T2BC0 001:533 JLINK_Go() -- CPU_WriteMem(4 bytes @ 0xE0002008) -- CPU_WriteMem(4 bytes @ 0xE000200C) -- CPU_WriteMem(4 bytes @ 0xE0002010) -- CPU_WriteMem(4 bytes @ 0xE0002014) -- CPU_WriteMem(4 bytes @ 0xE0002018) -- CPU_WriteMem(4 bytes @ 0xE000201C) (0007ms, 0965ms total)
T2BC0 001:540 JLINK_IsHalted()  returns FALSE (0001ms, 0972ms total)
T2BC0 001:591 JLINK_IsHalted() -- CPU_ReadMem(2 bytes @ 0x20000000)  returns TRUE (0005ms, 0972ms total)
T2BC0 001:596 JLINK_ReadReg(R15)  returns 0x20000000 (0000ms, 0972ms total)
T2BC0 001:596 JLINK_ClrBPEx(BPHandle = 0x0000000C)  returns 0x00 (0000ms, 0972ms total)
T2BC0 001:596 JLINK_ReadReg(R0)  returns 0x00000000 (0000ms, 0972ms total)
T2BC0 001:597 JLINK_WriteMem(0x20000164, 0x0400 Bytes, ...) -- Data:  72 29 20 D1 0D 21 00 E0 0A 21 30 46 00 F0 43 F8 ... -- CPU_WriteMem(1024 bytes @ 0x20000164)  returns 0x400 (0007ms, 0972ms total)
T2BC0 001:604 JLINK_WriteReg(R0, 0x08002000)  returns 0x00 (0000ms, 0979ms total)
T2BC0 001:604 JLINK_WriteReg(R1, 0x00000400)  returns 0x00 (0000ms, 0979ms total)
T2BC0 001:604 JLINK_WriteReg(R2, 0x20000164)  returns 0x00 (0000ms, 0979ms total)
T2BC0 001:604 JLINK_WriteReg(R3, 0x00000000)  returns 0x00 (0000ms, 0979ms total)
T2BC0 001:604 JLINK_WriteReg(R4, 0x00000000)  returns 0x00 (0000ms, 0979ms total)
T2BC0 001:604 JLINK_WriteReg(R5, 0x00000000)  returns 0x00 (0000ms, 0979ms total)
T2BC0 001:604 JLINK_WriteReg(R6, 0x00000000)  returns 0x00 (0000ms, 0979ms total)
T2BC0 001:604 JLINK_WriteReg(R7, 0x00000000)  returns 0x00 (0000ms, 0979ms total)
T2BC0 001:604 JLINK_WriteReg(R8, 0x00000000)  returns 0x00 (0000ms, 0979ms total)
T2BC0 001:604 JLINK_WriteReg(R9, 0x20000160)  returns 0x00 (0000ms, 0979ms total)
T2BC0 001:604 JLINK_WriteReg(R10, 0x00000000)  returns 0x00 (0000ms, 0979ms total)
T2BC0 001:604 JLINK_WriteReg(R11, 0x00000000)  returns 0x00 (0000ms, 0979ms total)
T2BC0 001:604 JLINK_WriteReg(R12, 0x00000000)  returns 0x00 (0000ms, 0979ms total)
T2BC0 001:604 JLINK_WriteReg(R13, 0x20000800)  returns 0x00 (0000ms, 0979ms total)
T2BC0 001:604 JLINK_WriteReg(R14, 0x20000001)  returns 0x00 (0000ms, 0979ms total)
T2BC0 001:604 JLINK_WriteReg(R15, 0x200000F4)  returns 0x00 (0000ms, 0979ms total)
T2BC0 001:604 JLINK_WriteReg(XPSR, 0x01000000)  returns 0x00 (0000ms, 0979ms total)
T2BC0 001:604 JLINK_WriteReg(MSP, 0x20000800)  returns 0x00 (0000ms, 0979ms total)
T2BC0 001:604 JLINK_WriteReg(PSP, 0x20000800)  returns 0x00 (0000ms, 0979ms total)
T2BC0 001:604 JLINK_WriteReg(CFBP, 0x00000000)  returns 0x00 (0000ms, 0979ms total)
T2BC0 001:604 JLINK_SetBPEx(Addr = 0x20000000, Type = 0xFFFFFFF2)  returns 0x0000000D (0000ms, 0979ms total)
T2BC0 001:604 JLINK_Go() -- CPU_WriteMem(4 bytes @ 0xE0002008) -- CPU_WriteMem(4 bytes @ 0xE000200C) -- CPU_WriteMem(4 bytes @ 0xE0002010) -- CPU_WriteMem(4 bytes @ 0xE0002014) -- CPU_WriteMem(4 bytes @ 0xE0002018) -- CPU_WriteMem(4 bytes @ 0xE000201C) (0006ms, 0979ms total)
T2BC0 001:611 JLINK_IsHalted()  returns FALSE (0001ms, 0986ms total)
T2BC0 001:662 JLINK_IsHalted() -- CPU_ReadMem(2 bytes @ 0x20000000)  returns TRUE (0005ms, 0986ms total)
T2BC0 001:668 JLINK_ReadReg(R15)  returns 0x20000000 (0000ms, 0986ms total)
T2BC0 001:668 JLINK_ClrBPEx(BPHandle = 0x0000000D)  returns 0x00 (0000ms, 0986ms total)
T2BC0 001:668 JLINK_ReadReg(R0)  returns 0x00000000 (0000ms, 0986ms total)
T2BC0 001:668 JLINK_WriteMem(0x20000164, 0x0400 Bytes, ...) -- Data:  18 B3 01 25 40 F6 F6 77 B8 42 00 D3 02 25 4F F6 ... -- CPU_WriteMem(1024 bytes @ 0x20000164)  returns 0x400 (0007ms, 0986ms total)
T2BC0 001:675 JLINK_WriteReg(R0, 0x08002400)  returns 0x00 (0000ms, 0993ms total)
T2BC0 001:675 JLINK_WriteReg(R1, 0x00000400)  returns 0x00 (0000ms, 0993ms total)
T2BC0 001:675 JLINK_WriteReg(R2, 0x20000164)  returns 0x00 (0000ms, 0993ms total)
T2BC0 001:675 JLINK_WriteReg(R3, 0x00000000)  returns 0x00 (0000ms, 0993ms total)
T2BC0 001:675 JLINK_WriteReg(R4, 0x00000000)  returns 0x00 (0000ms, 0993ms total)
T2BC0 001:675 JLINK_WriteReg(R5, 0x00000000)  returns 0x00 (0000ms, 0993ms total)
T2BC0 001:675 JLINK_WriteReg(R6, 0x00000000)  returns 0x00 (0000ms, 0993ms total)
T2BC0 001:675 JLINK_WriteReg(R7, 0x00000000)  returns 0x00 (0000ms, 0993ms total)
T2BC0 001:675 JLINK_WriteReg(R8, 0x00000000)  returns 0x00 (0000ms, 0993ms total)
T2BC0 001:675 JLINK_WriteReg(R9, 0x20000160)  returns 0x00 (0000ms, 0993ms total)
T2BC0 001:675 JLINK_WriteReg(R10, 0x00000000)  returns 0x00 (0000ms, 0993ms total)
T2BC0 001:675 JLINK_WriteReg(R11, 0x00000000)  returns 0x00 (0000ms, 0993ms total)
T2BC0 001:675 JLINK_WriteReg(R12, 0x00000000)  returns 0x00 (0000ms, 0993ms total)
T2BC0 001:675 JLINK_WriteReg(R13, 0x20000800)  returns 0x00 (0000ms, 0993ms total)
T2BC0 001:675 JLINK_WriteReg(R14, 0x20000001)  returns 0x00 (0000ms, 0993ms total)
T2BC0 001:675 JLINK_WriteReg(R15, 0x200000F4)  returns 0x00 (0000ms, 0993ms total)
T2BC0 001:675 JLINK_WriteReg(XPSR, 0x01000000)  returns 0x00 (0000ms, 0993ms total)
T2BC0 001:675 JLINK_WriteReg(MSP, 0x20000800)  returns 0x00 (0000ms, 0993ms total)
T2BC0 001:675 JLINK_WriteReg(PSP, 0x20000800)  returns 0x00 (0000ms, 0993ms total)
T2BC0 001:675 JLINK_WriteReg(CFBP, 0x00000000)  returns 0x00 (0000ms, 0993ms total)
T2BC0 001:675 JLINK_SetBPEx(Addr = 0x20000000, Type = 0xFFFFFFF2)  returns 0x0000000E (0000ms, 0993ms total)
T2BC0 001:675 JLINK_Go() -- CPU_WriteMem(4 bytes @ 0xE0002008) -- CPU_WriteMem(4 bytes @ 0xE000200C) -- CPU_WriteMem(4 bytes @ 0xE0002010) -- CPU_WriteMem(4 bytes @ 0xE0002014) -- CPU_WriteMem(4 bytes @ 0xE0002018) -- CPU_WriteMem(4 bytes @ 0xE000201C) (0007ms, 0993ms total)
T2BC0 001:682 JLINK_IsHalted()  returns FALSE (0001ms, 1000ms total)
T2BC0 001:733 JLINK_IsHalted() -- CPU_ReadMem(2 bytes @ 0x20000000)  returns TRUE (0005ms, 1000ms total)
T2BC0 001:739 JLINK_ReadReg(R15)  returns 0x20000000 (0000ms, 1000ms total)
T2BC0 001:739 JLINK_ClrBPEx(BPHandle = 0x0000000E)  returns 0x00 (0000ms, 1000ms total)
T2BC0 001:739 JLINK_ReadReg(R0)  returns 0x00000000 (0000ms, 1000ms total)
T2BC0 001:739 JLINK_WriteMem(0x20000164, 0x0400 Bytes, ...) -- Data:  6C 69 20 78 08 B9 04 27 77 E0 E1 7A E5 28 01 F0 ... -- CPU_WriteMem(1024 bytes @ 0x20000164)  returns 0x400 (0007ms, 1000ms total)
T2BC0 001:746 JLINK_WriteReg(R0, 0x08002800)  returns 0x00 (0000ms, 1007ms total)
T2BC0 001:746 JLINK_WriteReg(R1, 0x00000400)  returns 0x00 (0000ms, 1007ms total)
T2BC0 001:746 JLINK_WriteReg(R2, 0x20000164)  returns 0x00 (0000ms, 1007ms total)
T2BC0 001:746 JLINK_WriteReg(R3, 0x00000000)  returns 0x00 (0000ms, 1007ms total)
T2BC0 001:746 JLINK_WriteReg(R4, 0x00000000)  returns 0x00 (0000ms, 1007ms total)
T2BC0 001:746 JLINK_WriteReg(R5, 0x00000000)  returns 0x00 (0000ms, 1007ms total)
T2BC0 001:746 JLINK_WriteReg(R6, 0x00000000)  returns 0x00 (0000ms, 1007ms total)
T2BC0 001:746 JLINK_WriteReg(R7, 0x00000000)  returns 0x00 (0000ms, 1007ms total)
T2BC0 001:746 JLINK_WriteReg(R8, 0x00000000)  returns 0x00 (0000ms, 1007ms total)
T2BC0 001:746 JLINK_WriteReg(R9, 0x20000160)  returns 0x00 (0000ms, 1007ms total)
T2BC0 001:746 JLINK_WriteReg(R10, 0x00000000)  returns 0x00 (0000ms, 1007ms total)
T2BC0 001:746 JLINK_WriteReg(R11, 0x00000000)  returns 0x00 (0000ms, 1007ms total)
T2BC0 001:746 JLINK_WriteReg(R12, 0x00000000)  returns 0x00 (0000ms, 1007ms total)
T2BC0 001:746 JLINK_WriteReg(R13, 0x20000800)  returns 0x00 (0000ms, 1007ms total)
T2BC0 001:746 JLINK_WriteReg(R14, 0x20000001)  returns 0x00 (0000ms, 1007ms total)
T2BC0 001:746 JLINK_WriteReg(R15, 0x200000F4)  returns 0x00 (0000ms, 1007ms total)
T2BC0 001:746 JLINK_WriteReg(XPSR, 0x01000000)  returns 0x00 (0000ms, 1007ms total)
T2BC0 001:746 JLINK_WriteReg(MSP, 0x20000800)  returns 0x00 (0000ms, 1007ms total)
T2BC0 001:746 JLINK_WriteReg(PSP, 0x20000800)  returns 0x00 (0000ms, 1007ms total)
T2BC0 001:746 JLINK_WriteReg(CFBP, 0x00000000)  returns 0x00 (0000ms, 1007ms total)
T2BC0 001:746 JLINK_SetBPEx(Addr = 0x20000000, Type = 0xFFFFFFF2)  returns 0x0000000F (0000ms, 1007ms total)
T2BC0 001:746 JLINK_Go() -- CPU_WriteMem(4 bytes @ 0xE0002008) -- CPU_WriteMem(4 bytes @ 0xE000200C) -- CPU_WriteMem(4 bytes @ 0xE0002010) -- CPU_WriteMem(4 bytes @ 0xE0002014) -- CPU_WriteMem(4 bytes @ 0xE0002018) -- CPU_WriteMem(4 bytes @ 0xE000201C) (0006ms, 1007ms total)
T2BC0 001:752 JLINK_IsHalted()  returns FALSE (0001ms, 1013ms total)
T2BC0 001:803 JLINK_IsHalted() -- CPU_ReadMem(2 bytes @ 0x20000000)  returns TRUE (0005ms, 1013ms total)
T2BC0 001:809 JLINK_ReadReg(R15)  returns 0x20000000 (0000ms, 1013ms total)
T2BC0 001:809 JLINK_ClrBPEx(BPHandle = 0x0000000F)  returns 0x00 (0000ms, 1013ms total)
T2BC0 001:809 JLINK_ReadReg(R0)  returns 0x00000000 (0000ms, 1013ms total)
T2BC0 001:809 JLINK_WriteMem(0x20000164, 0x0400 Bytes, ...) -- Data:  38 F8 13 00 5B 1C 1E F8 02 50 48 55 1E F8 02 60 ... -- CPU_WriteMem(1024 bytes @ 0x20000164)  returns 0x400 (0007ms, 1013ms total)
T2BC0 001:816 JLINK_WriteReg(R0, 0x08002C00)  returns 0x00 (0000ms, 1020ms total)
T2BC0 001:816 JLINK_WriteReg(R1, 0x00000400)  returns 0x00 (0000ms, 1020ms total)
T2BC0 001:816 JLINK_WriteReg(R2, 0x20000164)  returns 0x00 (0000ms, 1020ms total)
